/net014 X,/net014 Y,/net015 X,/net015 Y
0,0.8631680947755571,0,-0.04455079994231496
1e-11,0.8631680947752971,1e-11,-0.04455079994193019
1.25e-11,0.8631680947763229,1.25e-11,-0.04455079994102171
1.75e-11,0.8631680947712488,1.75e-11,-0.04455079997940108
2.749999999999999e-11,0.8631680947759485,2.749999999999999e-11,-0.04455079997184138
2.999999999999999e-11,0.8631680947755485,2.999999999999999e-11,-0.04455079999777694
3.5e-11,0.8631680947656006,3.5e-11,-0.044550799909772
3.625e-11,0.863168094771338,3.625e-11,-0.04455079990172178
3.875e-11,0.8631680947840299,3.875e-11,-0.04455079990669798
4.375000000000001e-11,0.8631680947856777,4.375000000000001e-11,-0.04455079998689861
4.527541874111718e-11,0.8631680947775165,4.527541874111718e-11,-0.04455079998318357
4.832625622335153e-11,0.8631680947651811,4.832625622335153e-11,-0.04455079996170916
5.442793118782022e-11,0.8631680947725773,5.442793118782022e-11,-0.04455079992850848
5.595334992893739e-11,0.8631680947779269,5.595334992893739e-11,-0.04455079991995988
5.900418741117173e-11,0.8631680947812352,5.900418741117173e-11,-0.04455079992575722
6.510586237564041e-11,0.8631680947793112,6.510586237564041e-11,-0.04455079996267215
6.667660716468345e-11,0.8631680947779656,6.667660716468345e-11,-0.0445507999716596
6.981809674276953e-11,0.8631680947680987,6.981809674276953e-11,-0.04455079997076142
7.610107589894169e-11,0.8631680947590283,7.610107589894169e-11,-0.04455079992300498
7.803472243405513e-11,0.8631680947658918,7.803472243405513e-11,-0.04455079989463674
8.1902015504282e-11,0.8631680947781565,8.1902015504282e-11,-0.04455079992505191
8.963660164473575e-11,0.8631680947731079,8.963660164473575e-11,-0.04455079998338693
9.155294532908393e-11,0.8631680947679576,9.155294532908393e-11,-0.04455079996895103
9.538563269778028e-11,0.8631680947518274,9.538563269778028e-11,-0.04455079995262314
9.769281634889015e-11,0.863168094750986,9.769281634889015e-11,-0.04455079989834853
9.884640817444507e-11,0.8631680947537889,9.884640817444507e-11,-0.0445507998685724
9.942320408722254e-11,0.8631680947558408,9.942320408722254e-11,-0.04455079985406567
1e-10,0.8631680947578785,1e-10,-0.04455079984927286
1.000010174242895e-10,0.8631680945221565,1.000010174242895e-10,-0.04455079956212495
1.000017931297938e-10,0.8631680943422804,1.000017931297938e-10,-0.04455079934295761
1.000020247186692e-10,0.8631680942885358,1.000020247186692e-10,-0.04455079927748692
1.000021730486492e-10,0.8631680942539698,1.000021730486492e-10,-0.04455079923555005
1.000022957051243e-10,0.8631680942253837,1.000022957051243e-10,-0.04455079920086665
1.000023923326422e-10,0.863168094202862,1.000023923326422e-10,-0.04455079917354019
1.00002585587678e-10,0.8631680941578143,1.00002585587678e-10,-0.04455079911887875
1.000029720977495e-10,0.8631680940677007,1.000029720977495e-10,-0.04455079900952184
1.000037451178925e-10,0.8631680938874031,1.000037451178925e-10,-0.04455079879067189
1.000052911581786e-10,0.8631680935265275,1.000052911581786e-10,-0.04455079835242782
1.000083832387508e-10,0.8631680928036459,1.000083832387508e-10,-0.04455079747376601
1.000145673998951e-10,0.8631680913533057,1.000145673998951e-10,-0.04455079570777198
1.000269357221837e-10,0.8631680884337888,1.000269357221837e-10,-0.04455079214129592
1.000474680804423e-10,0.8631680835279777,1.000474680804423e-10,-0.0445507861203233
1.000691643426237e-10,0.8631680782521843,1.000691643426237e-10,-0.04455077962473366
1.000902039598754e-10,0.8631680730186251,1.000902039598754e-10,-0.04455077319756035
1.001104498952131e-10,0.8631680678248143,1.001104498952131e-10,-0.04455076689504352
1.001293942996409e-10,0.8631680627651771,1.001293942996409e-10,-0.04455076089095296
1.001473274692799e-10,0.8631680577550824,1.001473274692799e-10,-0.04455075510290659
1.001658705625793e-10,0.8631680523475497,1.001658705625793e-10,-0.0445507489874596
1.001882875912782e-10,0.8631680455621672,1.001882875912782e-10,-0.04455074136032056
1.002139213431875e-10,0.863168037579445,1.002139213431875e-10,-0.04455073225963448
1.002390563786545e-10,0.8631680295978748,1.002390563786545e-10,-0.04455072297842753
1.002685196599606e-10,0.8631680200911375,1.002685196599606e-10,-0.04455071177653235
1.002979855782974e-10,0.8631680104397901,1.002979855782974e-10,-0.04455070032196254
1.003296235264071e-10,0.8631679999233429,1.003296235264071e-10,-0.04455068779600226
1.003824033163979e-10,0.8631679820062761,1.003824033163979e-10,-0.04455066645282967
1.004202321264954e-10,0.8631679688650233,1.004202321264954e-10,-0.04455065087106241
1.004488272766445e-10,0.8631679587581969,1.004488272766445e-10,-0.04455063896138718
1.004797696866778e-10,0.8631679476519453,1.004797696866778e-10,-0.04455062596564261
1.005196864028673e-10,0.8631679330683941,1.005196864028673e-10,-0.04455060906168595
1.00571294743237e-10,0.8631679138012969,1.00571294743237e-10,-0.04455058708563932
1.00597421076436e-10,0.8631679038649241,1.00597421076436e-10,-0.04455057620480217
1.006181519036783e-10,0.8631678959028417,1.006181519036783e-10,-0.04455056761359411
1.00637777888248e-10,0.8631678883036915,1.00637777888248e-10,-0.04455055952608158
1.006770298573874e-10,0.8631678729367368,1.006770298573874e-10,-0.04455054345173196
1.007401164360637e-10,0.8631678478344269,1.007401164360637e-10,-0.04455051760860459
1.007920037794908e-10,0.8631678268914116,1.007920037794908e-10,-0.04455049622092788
1.008516503870853e-10,0.8631678025502237,1.008516503870853e-10,-0.04455047149738636
1.009258251935427e-10,0.8631677719871856,1.009258251935427e-10,-0.04455044065369
1.01e-10,0.863167741239064,1.01e-10,-0.04455040990956621
1.01008337962963e-10,0.8631677399660616,1.01008337962963e-10,-0.04455040856845027
1.010168382792012e-10,0.8631677386899885,1.010168382792012e-10,-0.04455040722791317
1.010289390262864e-10,0.8631677369107752,1.010289390262864e-10,-0.04455040536631504
1.010531405204566e-10,0.8631677334842793,1.010531405204566e-10,-0.04455040181089778
1.011015435087971e-10,0.8631677271648165,1.011015435087971e-10,-0.0445503953956546
1.01198349485478e-10,0.8631677167124124,1.01198349485478e-10,-0.04455038548913035
1.0139196143884e-10,0.863167705025666,1.0139196143884e-10,-0.04455037746068977
1.015735872946884e-10,0.863167705715105,1.015735872946884e-10,-0.04455038389215839
1.017462192245193e-10,0.8631677172972063,1.017462192245193e-10,-0.04455040280776707
1.020245713286501e-10,0.8631677595571813,1.020245713286501e-10,-0.04455046067254206
1.025007820966609e-10,0.8631679019942929,1.025007820966609e-10,-0.04455063999546952
1.029869898969196e-10,0.8631681335933995,1.029869898969196e-10,-0.04455091866493651
1.034648249448548e-10,0.8631684368654697,1.034648249448548e-10,-0.04455127242273414
1.039132603390886e-10,0.8631687766303654,1.039132603390886e-10,-0.04455165696686422
1.042742471365738e-10,0.8631690765701595,1.042742471365738e-10,-0.04455198658487181
1.046880633993269e-10,0.8631694198208759,1.046880633993269e-10,-0.0445523505242405
1.050872094032994e-10,0.8631696849846704,1.050872094032994e-10,-0.04455261138479568
1.056766219831058e-10,0.8631698188833674,1.056766219831058e-10,-0.04455268253741041
1.062704977779464e-10,0.8631695557026943,1.062704977779464e-10,-0.04455228650260311
1.068100520420494e-10,0.863168956690587,1.068100520420494e-10,-0.04455151631585463
1.073995227718183e-10,0.8631679570068616,1.073995227718183e-10,-0.04455029841251135
1.079776943755058e-10,0.8631667322937349,1.079776943755058e-10,-0.04454886213995776
1.085843063838209e-10,0.8631653573590583,1.085843063838209e-10,-0.04454731046242207
1.092947762097594e-10,0.8631639958479842,1.092947762097594e-10,-0.044545869762702
1.101387876212561e-10,0.8631634285237796,1.101387876212561e-10,-0.04454547529593515
1.112279729924079e-10,0.8631650088622259,1.112279729924079e-10,-0.04454770863132533
1.123213777152861e-10,0.8631687748999702,1.123213777152861e-10,-0.04455237158389119
1.134436201431817e-10,0.8631731764101958,1.134436201431817e-10,-0.04455749863295093
1.144740659312778e-10,0.8631756419558064,1.144740659312778e-10,-0.04456008094982837
1.151017844554226e-10,0.8631758031041125,1.151017844554226e-10,-0.04455999058505862
1.156856110710064e-10,0.8631749665574932,1.156856110710064e-10,-0.04455871712860648
1.167269509549209e-10,0.8631715013530705,1.167269509549209e-10,-0.04455415212738087
1.180511921651083e-10,0.8631654601420558,1.180511921651083e-10,-0.04454665071214007
1.193345137487986e-10,0.86316102015711,1.193345137487986e-10,-0.04454142280346899
1.205899536210195e-10,0.8631599538617917,1.205899536210195e-10,-0.04454050936934589
1.219192800178776e-10,0.8631623265697639,1.219192800178776e-10,-0.04454391009955118
1.231411236588375e-10,0.8631661727121323,1.231411236588375e-10,-0.04454904278359978
1.245458129414522e-10,0.8631704807386235,1.245458129414522e-10,-0.04455465935200697
1.26087267518223e-10,0.86317333548926,1.26087267518223e-10,-0.04455823109093966
1.279046418537283e-10,0.8631735352822529,1.279046418537283e-10,-0.04455810333741954
1.300254195383496e-10,0.8631709574888359,1.300254195383496e-10,-0.04455412367563778
1.326907150857292e-10,0.863166902602754,1.326907150857292e-10,-0.04454828738168945
1.34766728929072e-10,0.8631647528959798,1.34766728929072e-10,-0.04454562720745864
1.37172004798137e-10,0.8631642258903318,1.37172004798137e-10,-0.04454563100962013
1.39390111181509e-10,0.8631657519654068,1.39390111181509e-10,-0.04454838595978378
1.420422282323564e-10,0.8631686452647169,1.420422282323564e-10,-0.04455259841665166
1.446496246932161e-10,0.863170987504956,1.446496246932161e-10,-0.04455524721592523
1.475229591198098e-10,0.8631714962582344,1.475229591198098e-10,-0.04455502167768035
1.498202022942741e-10,0.863169990265961,1.498202022942741e-10,-0.04455240683011746
1.520053802497031e-10,0.8631678078289182,1.520053802497031e-10,-0.04454935293318684
1.544427150183643e-10,0.8631655801665308,1.544427150183643e-10,-0.04454682352880066
1.573203856835316e-10,0.8631647218088356,1.573203856835316e-10,-0.04454655968276177
1.601878168072358e-10,0.8631660711958865,1.601878168072358e-10,-0.04454905974659742
1.627455398853986e-10,0.8631684297561497,1.627455398853986e-10,-0.04455227333047717
1.649927352445634e-10,0.8631703856499368,1.649927352445634e-10,-0.04455449447323552
1.673775885214075e-10,0.8631714532421131,1.673775885214075e-10,-0.04455520400045583
1.697807591821609e-10,0.8631709925898875,1.697807591821609e-10,-0.0445538699080987
1.726794991151692e-10,0.8631687635305609,1.726794991151692e-10,-0.04455057848486925
1.752476750815206e-10,0.8631662806436481,1.752476750815206e-10,-0.04454764903122098
1.774328949081802e-10,0.8631648229904625,1.774328949081802e-10,-0.04454633300893725
1.796490246938107e-10,0.8631645187507549,1.796490246938107e-10,-0.04454661107041958
1.820237249862756e-10,0.8631656442400282,1.820237249862756e-10,-0.04454859813467461
1.848823497463661e-10,0.8631682773734145,1.848823497463661e-10,-0.04455211844315092
1.874028626450809e-10,0.8631706223047321,1.874028626450809e-10,-0.04455467641206037
1.893877450825004e-10,0.8631717254626333,1.893877450825004e-10,-0.04455550945124882
1.912750034325769e-10,0.86317172654761,1.912750034325769e-10,-0.04455495645837562
1.930159924106062e-10,0.8631709737720673,1.930159924106062e-10,-0.04455360443404242
1.950636495755717e-10,0.863169179538353,1.950636495755717e-10,-0.04455109105183447
1.971775869112411e-10,0.8631669240261901,1.971775869112411e-10,-0.04454834140805531
1.997075578191003e-10,0.8631647130179456,1.997075578191003e-10,-0.04454610854632803
2e-10,0.8631645118761487,2e-10,-0.04454595048669478
2.00008337962963e-10,0.8631645090008838,2.00008337962963e-10,-0.04454594880169947
2.000232490902815e-10,0.863164503935439,2.000232490902815e-10,-0.04454594585773253
2.000530713449186e-10,0.8631644940856384,2.000530713449186e-10,-0.04454594021956546
2.00068448434965e-10,0.8631644892761222,2.00068448434965e-10,-0.04454593760175369
2.000802625751358e-10,0.8631644857297206,2.000802625751358e-10,-0.04454593575642312
2.000924225970728e-10,0.8631644821353628,2.000924225970728e-10,-0.04454593390696383
2.001037940470163e-10,0.8631644788245054,2.001037940470163e-10,-0.04454593222859773
2.001122996796081e-10,0.8631644764239976,2.001122996796081e-10,-0.04454593105425386
2.001293109447916e-10,0.8631644717764554,2.001293109447916e-10,-0.04454592888864656
2.001633334751587e-10,0.8631644628185432,2.001633334751587e-10,-0.04454592515967045
2.002129759642066e-10,0.8631644507834273,2.002129759642066e-10,-0.04454592150313971
2.002661352971382e-10,0.8631644407873512,2.002661352971382e-10,-0.04454592043992683
2.003187088945855e-10,0.863164434777931,2.003187088945855e-10,-0.04454592291826966
2.00368349960771e-10,0.8631644300351191,2.00368349960771e-10,-0.04454592603105885
2.004288914923391e-10,0.8631644272206559,2.004288914923391e-10,-0.04454593286557552
2.004846068752666e-10,0.8631644256267886,2.004846068752666e-10,-0.0445459403242763
2.0053721595315e-10,0.8631644253193852,2.0053721595315e-10,-0.04454594844962341
2.005954376297444e-10,0.8631644259395749,2.005954376297444e-10,-0.04454595877785339
2.006334429023432e-10,0.8631644265906268,2.006334429023432e-10,-0.04454596602283516
2.006580845512246e-10,0.8631644269083901,2.006580845512246e-10,-0.04454597092991523
2.006796942629604e-10,0.8631644270535576,2.006796942629604e-10,-0.04454597536787862
2.006982032858555e-10,0.8631644271496404,2.006982032858555e-10,-0.04454597926097083
2.00715451709887e-10,0.8631644272800592,2.00715451709887e-10,-0.04454598299023885
2.007499485579502e-10,0.8631644278857368,2.007499485579502e-10,-0.04454599080374745
2.007962878870815e-10,0.8631644288491425,2.007962878870815e-10,-0.04454600172613385
2.008416084709555e-10,0.8631644300125063,2.008416084709555e-10,-0.04454601284164206
2.008999045005185e-10,0.8631644336454501,2.008999045005185e-10,-0.04454602991357529
2.009980988186902e-10,0.863164440383355,2.009980988186902e-10,-0.04454606023764849
2.01e-10,0.8631644404770296,2.01e-10,-0.04454606079971347
2.010023707647878e-10,0.8631644400500235,2.010023707647878e-10,-0.04454606084597202
2.010046805427791e-10,0.863164439632524,2.010046805427791e-10,-0.04454606089009307
2.010068037377687e-10,0.8631644392474703,2.010068037377687e-10,-0.044546060929846
2.010110501277479e-10,0.8631644384736856,2.010110501277479e-10,-0.044546061007063
2.010195429077064e-10,0.8631644369113382,2.010195429077064e-10,-0.04454606115231542
2.010365284676234e-10,0.8631644337269828,2.010365284676234e-10,-0.04454606140573022
2.010704995874574e-10,0.8631644271165618,2.010704995874574e-10,-0.04454606176113621
2.011384418271253e-10,0.8631644141863322,2.011384418271253e-10,-0.04454606379263543
2.012743263064612e-10,0.863164385299187,2.012743263064612e-10,-0.04454606636194167
2.014364289008583e-10,0.8631643501502259,2.014364289008583e-10,-0.04454607564489404
2.016235572230699e-10,0.8631643169963522,2.016235572230699e-10,-0.04454610265569078
2.018398790110699e-10,0.8631642761113574,2.018398790110699e-10,-0.04454613457581346
2.020346939076119e-10,0.8631642408857374,2.020346939076119e-10,-0.04454616631687349
2.023206204629973e-10,0.863164177548675,2.023206204629973e-10,-0.04454620384112026
2.025644763988473e-10,0.8631641086179116,2.025644763988473e-10,-0.04454622261990664
2.030521882705472e-10,0.8631639409249187,2.030521882705472e-10,-0.04454623639528178
2.03483703156046e-10,0.8631637627021712,2.03483703156046e-10,-0.04454621465771672
2.038336565209988e-10,0.8631636208154604,2.038336565209988e-10,-0.04454620064288753
2.042406434353444e-10,0.8631635063860014,2.042406434353444e-10,-0.04454624252747438
2.047879922358379e-10,0.8631634273534352,2.047879922358379e-10,-0.04454636291754225
2.052825688393116e-10,0.8631635624728301,2.052825688393116e-10,-0.04454665895697106
2.056564751920254e-10,0.8631638996277127,2.056564751920254e-10,-0.04454712335768752
2.060172847528303e-10,0.8631644161275758,2.060172847528303e-10,-0.04454775177308417
2.063615238532628e-10,0.8631650513943272,2.063615238532628e-10,-0.04454847454652487
2.06744305013845e-10,0.8631659481349515,2.06744305013845e-10,-0.04454946093721267
2.072827446329288e-10,0.8631675263356774,2.072827446329288e-10,-0.04455116087982454
2.079041871646661e-10,0.8631696423003958,2.079041871646661e-10,-0.04455339724463511
2.085510368668543e-10,0.8631719720129192,2.085510368668543e-10,-0.04455585487720018
2.087911050294783e-10,0.8631727737480628,2.087911050294783e-10,-0.04455671018311556
2.089843181624266e-10,0.8631733755737021,2.089843181624266e-10,-0.04455735812403153
2.091829697311138e-10,0.8631739365148343,2.091829697311138e-10,-0.04455797069292899
2.095073386116581e-10,0.8631747215343158,2.095073386116581e-10,-0.04455885132106703
2.101560763727468e-10,0.8631755231239699,2.101560763727468e-10,-0.04455983395159521
2.112303372437709e-10,0.863174339676826,2.112303372437709e-10,-0.04455891607058843
2.124039451185516e-10,0.8631703010722038,2.124039451185516e-10,-0.04455498701400078
2.138835302158317e-10,0.8631647449583778,2.138835302158317e-10,-0.044549008772518
2.153599034339302e-10,0.8631638809424549,2.153599034339302e-10,-0.04454698045598269
2.167149451332471e-10,0.8631683294363447,2.167149451332471e-10,-0.04455011537321868
2.179649600082906e-10,0.8631739377700135,2.179649600082906e-10,-0.04455470983271593
2.192152644438226e-10,0.8631774676653109,2.192152644438226e-10,-0.04455781549446652
2.205172003805666e-10,0.863176804758823,2.205172003805666e-10,-0.0445574136772292
2.219644155168925e-10,0.8631712185527232,2.219644155168925e-10,-0.04455273416172341
2.236306127933195e-10,0.8631627486464376,2.236306127933195e-10,-0.04454544754762709
2.254112713301501e-10,0.863156674459693,2.254112713301501e-10,-0.04454008857831376
2.274343500353464e-10,0.8631563482023556,2.274343500353464e-10,-0.04453973440117365
2.301462084091273e-10,0.8631636954875425,2.301462084091273e-10,-0.04454649051886314
2.312718871584198e-10,0.8631676570756678,2.312718871584198e-10,-0.04455042371383439
2.322735526176164e-10,0.8631707496760395,2.322735526176164e-10,-0.04455358956264818
2.33885159371893e-10,0.863174667377039,2.33885159371893e-10,-0.04455779488462007
2.354222133986747e-10,0.8631768819898399,2.354222133986747e-10,-0.04456045319688128
2.38496321452238e-10,0.8631765633297566,2.38496321452238e-10,-0.04456076165299018
2.404646766252858e-10,0.8631712956733725,2.404646766252858e-10,-0.04455499735666814
2.424355628447217e-10,0.8631643759453834,2.424355628447217e-10,-0.04454709714388986
2.444089522477621e-10,0.8631608197280896,2.444089522477621e-10,-0.04454264743661494
2.461020032367322e-10,0.8631602452131435,2.461020032367322e-10,-0.04454162665570954
2.479031755788853e-10,0.8631600853841965,2.479031755788853e-10,-0.04454106114100289
2.498659912494299e-10,0.8631603675580071,2.498659912494299e-10,-0.04454127711672241
2.52043007901511e-10,0.8631631470455199,2.52043007901511e-10,-0.04454471974489737
2.548985283597296e-10,0.8631677895030082,2.548985283597296e-10,-0.04455119472610344
2.56913106444195e-10,0.8631701561534155,2.56913106444195e-10,-0.04455502001376604
2.584423532470675e-10,0.8631709185264207,2.584423532470675e-10,-0.04455654965381056
2.599488941216458e-10,0.8631709749687762,2.599488941216458e-10,-0.04455686252953184
2.608858840286665e-10,0.8631706120586807,2.608858840286665e-10,-0.04455623927889216
2.618540811202158e-10,0.8631699263674079,2.618540811202158e-10,-0.04455504756969633
2.627131820232204e-10,0.8631690722813192,2.627131820232204e-10,-0.04455369080168826
2.633576747367974e-10,0.8631681391847665,2.633576747367974e-10,-0.04455230836542909
2.646466601639514e-10,0.8631658214255905,2.646466601639514e-10,-0.04454906351339104
2.67148033644023e-10,0.8631607045558869,2.67148033644023e-10,-0.04454222384108137
2.690537174719319e-10,0.8631576800645129,2.690537174719319e-10,-0.0445382814527811
2.709837262787055e-10,0.8631564244430519,2.709837262787055e-10,-0.04453675357736429
2.728370045142839e-10,0.8631565393930049,2.728370045142839e-10,-0.0445371092454471
2.74030473754169e-10,0.8631571422676156,2.74030473754169e-10,-0.04453806930190923
2.750460954614473e-10,0.8631580098758336,2.750460954614473e-10,-0.04453940578397531
