/net07 X,/net07 Y,/net7 X,/net7 Y,/net5 X,/net5 Y,/net4 X,/net4 Y
0,0.9205349037339035,0,0.00660290255685487,0,0.8784901712827105,0,-0.03479393984059818
3e-11,0.920533256680711,3e-11,0.006602896815266565,3e-11,0.8784901715160941,3e-11,-0.0347939401427452
3.75e-11,0.9205330632121423,3.75e-11,0.006602892318050749,3.75e-11,0.8784901715085214,3.75e-11,-0.03479394016959955
5.25e-11,0.9205329577062684,5.25e-11,0.006602891677979695,5.25e-11,0.878490171299251,5.25e-11,-0.0347939400316231
8.25e-11,0.9205329552909162,8.25e-11,0.006602892601343821,8.25e-11,0.8784901708651347,8.25e-11,-0.03479393966526918
9.27950746e-11,0.9205329930844581,9.27950746e-11,0.006602886809862978,9.27950746e-11,0.8784901709438115,9.27950746e-11,-0.03479393972178337
1.133852238e-10,0.9205329982568902,1.133852238e-10,0.006602894151843779,1.133852238e-10,0.8784901711729119,1.133852238e-10,-0.03479393986196572
1.195610712e-10,0.9205328944856093,1.195610712e-10,0.006602898182084353,1.195610712e-10,0.8784901711774409,1.195610712e-10,-0.03479393983698935
1.31912766e-10,0.9205326350735652,1.31912766e-10,0.006602890149716438,1.31912766e-10,0.8784901710903807,1.31912766e-10,-0.03479393969511029
1.566161556e-10,0.9205328663528702,1.566161556e-10,0.00660284004251237,1.566161556e-10,0.878490170970889,1.566161556e-10,-0.03479393943504014
1.62792003e-10,0.9205329951785231,1.62792003e-10,0.006602831118855091,1.62792003e-10,0.8784901709959756,1.62792003e-10,-0.03479393941774393
1.751436978e-10,0.9205331487521244,1.751436978e-10,0.006602827707205365,1.751436978e-10,0.8784901710850295,1.751436978e-10,-0.03479393944004565
1.998470875e-10,0.920533120080292,1.998470875e-10,0.006602866242735632,1.998470875e-10,0.8784901708857279,1.998470875e-10,-0.03479393932605872
2.060229349e-10,0.9205330791026649,2.060229349e-10,0.006602878154016309,2.060229349e-10,0.8784901707333717,2.060229349e-10,-0.03479393924305278
2.183746297e-10,0.9205330358530495,2.183746297e-10,0.006602890555878736,2.183746297e-10,0.878490170385601,2.183746297e-10,-0.03479393904997253
2.430780193e-10,0.9205329903710971,2.430780193e-10,0.006602902058948352,2.430780193e-10,0.878490170204892,2.430780193e-10,-0.03479393904710219
2.582517121e-10,0.9205329602865803,2.582517121e-10,0.006602898194513156,2.582517121e-10,0.8784901705642193,2.582517121e-10,-0.03479393943607256
2.638848969e-10,0.920532960320027,2.638848969e-10,0.006602893223151206,2.638848969e-10,0.8784901707218189,2.638848969e-10,-0.03479393960905298
2.751512665e-10,0.9205330177575215,2.751512665e-10,0.006602880825875589,2.751512665e-10,0.8784901709019129,2.751512665e-10,-0.03479393984069398
2.976840058e-10,0.9205330662008723,2.976840058e-10,0.006602873364189477,2.976840058e-10,0.8784901702966956,2.976840058e-10,-0.03479393929736024
3.046318352e-10,0.9205330584656068,3.046318352e-10,0.006602875197208105,3.046318352e-10,0.8784901699385564,3.046318352e-10,-0.03479393888317735
3.18527494e-10,0.9205330156895253,3.18527494e-10,0.006602884143221901,3.18527494e-10,0.8784901694521344,3.18527494e-10,-0.03479393807465413
3.463188116e-10,0.920533000687898,3.463188116e-10,0.006602888002079186,3.463188116e-10,0.8784901708085926,3.463188116e-10,-0.03479393798183233
3.557652798e-10,0.920533010776813,3.557652798e-10,0.006602885446345072,3.557652798e-10,0.8784901716974467,3.557652798e-10,-0.03479393826230014
3.746582162e-10,0.920533017442513,3.746582162e-10,0.006602884568890494,3.746582162e-10,0.8784901727398591,3.746582162e-10,-0.03479393825018356
3.85373486e-10,0.9205330161008545,3.85373486e-10,0.006602884373984078,3.85373486e-10,0.878490172619794,3.85373486e-10,-0.03479393772631655
4.068040257e-10,0.9205330355053257,4.068040257e-10,0.006602884025439833,4.068040257e-10,0.8784901715756551,4.068040257e-10,-0.03479393634736862
4.159447902e-10,0.920533034746806,4.159447902e-10,0.006602884346733696,4.159447902e-10,0.8784901712526211,4.159447902e-10,-0.03479393602621092
4.342263191e-10,0.9205330192516362,4.342263191e-10,0.00660288617039764,4.342263191e-10,0.8784901714098526,4.342263191e-10,-0.03479393631218001
4.445601007e-10,0.920533010423168,4.445601007e-10,0.006602887891923946,4.445601007e-10,0.8784901718426728,4.445601007e-10,-0.03479393687926896
4.65227664e-10,0.9205330134626777,4.65227664e-10,0.006602887903013362,4.65227664e-10,0.8784901725516976,4.65227664e-10,-0.03479393807414023
4.770412078e-10,0.9205330227645024,4.770412078e-10,0.006602886194657835,4.770412078e-10,0.8784901724855617,4.770412078e-10,-0.0347939384656139
5.006682954e-10,0.9205330273320201,5.006682954e-10,0.006602885941932393,5.006682954e-10,0.8784901713549056,5.006682954e-10,-0.03479393852958103
5.01e-10,0.9205330272644738,5.01e-10,0.006602885965677137,5.01e-10,0.8784901713320366,5.01e-10,-0.03479393852526936
5.016634091e-10,0.9205330271244534,5.016634091e-10,0.006602886009717439,5.016634091e-10,0.8784901712895463,5.016634091e-10,-0.03479393851869836
5.029902274e-10,0.9205330268416748,5.029902274e-10,0.006602886083082518,5.029902274e-10,0.8784901712118892,5.029902274e-10,-0.03479393850998785
5.05643864e-10,0.9205330263924169,5.05643864e-10,0.006602886195696308,5.05643864e-10,0.8784901710669719,5.05643864e-10,-0.03479393849806951
5.109511373e-10,0.9205330262358045,5.109511373e-10,0.006602886421461337,5.109511373e-10,0.8784901708114631,5.109511373e-10,-0.03479393849123179
5.215656838e-10,0.9205330287641172,5.215656838e-10,0.006602887049271989,5.215656838e-10,0.8784901704973676,5.215656838e-10,-0.03479393857749545
5.427947767e-10,0.9205330309998138,5.427947767e-10,0.006602887730160924,5.427947767e-10,0.8784901707400529,5.427947767e-10,-0.03479393909922591
5.700685934e-10,0.9205330291253867,5.700685934e-10,0.006602887963662755,5.700685934e-10,0.8784901715658219,5.700685934e-10,-0.03479393934167633
6.246162267e-10,0.9205330263290432,6.246162267e-10,0.006602887817344469,6.246162267e-10,0.8784901708360452,6.246162267e-10,-0.03479393663580058
6.672878055e-10,0.9205330241736945,6.672878055e-10,0.006602888239101372,6.672878055e-10,0.8784901708181434,6.672878055e-10,-0.03479393543052963
7.309521787e-10,0.9205330262228948,7.309521787e-10,0.006602888226386507,7.309521787e-10,0.8784901698052823,7.309521787e-10,-0.03479393477862391
8.130077260999999e-10,0.9205330261822824,8.130077260999999e-10,0.006602888119811715,8.130077260999999e-10,0.8784901691591838,8.130077260999999e-10,-0.03479393551617262
8.967080282e-10,0.9205330210016631,8.967080282e-10,0.006602889387823327,8.967080282e-10,0.8784901711171237,8.967080282e-10,-0.03479393426289664
9.01e-10,0.9205330205816629,9.01e-10,0.006602889401464748,9.01e-10,0.8784901712147356,9.01e-10,-0.03479393413151666
9.095839434e-10,0.9205330197526642,9.095839434e-10,0.006602889331629377,9.095839434e-10,0.8784901713391547,9.095839434e-10,-0.03479393386254483
9.267518304e-10,0.9205330177488437,9.267518304e-10,0.006602889069615833,9.267518304e-10,0.8784901713652612,9.267518304e-10,-0.03479393337478556
9.610876042999999e-10,0.9205330131171614,9.610876042999999e-10,0.006602887537124539,9.610876042999999e-10,0.8784901711354822,9.610876042999999e-10,-0.03479393312061271
1e-09,0.9205330087726944,1e-09,0.006602884482865327,1e-09,0.8784901716778822,1e-09,-0.03479393406714362
1.0000221218e-09,0.9221711383679221,1.0000221218e-09,0.005259298093236059,1.0000221218e-09,0.8784901610976497,1.0000221218e-09,-0.03479392285781458
1.0000385981e-09,0.9233862714704775,1.0000385981e-09,0.004264219971122733,1.0000385981e-09,0.8784901491621503,1.0000385981e-09,-0.03479391021176747
1.0000715508e-09,0.9257970303117201,1.0000715508e-09,0.002295280877827096,1.0000715508e-09,0.8784901098003471,1.0000715508e-09,-0.03479386849974721
1.0001029279e-09,0.9280670819013743,1.0001029279e-09,0.0004479106688642989,1.0001029279e-09,0.8784900527414075,1.0001029279e-09,-0.03479380802163265
1.0001208088e-09,0.9293494754805383,1.0001208088e-09,-0.0006696404751275853,1.0001208088e-09,0.8784900116264704,1.0001208088e-09,-0.03479376447555763
1.0001365492e-09,0.9304715793439705,1.0001365492e-09,-0.00169601650730475,1.0001365492e-09,0.8784899702361115,1.0001365492e-09,-0.03479372068476908
1.0001517297e-09,0.9315477487783359,1.0001517297e-09,-0.002677958468948694,1.0001517297e-09,0.8784899257748651,1.0001517297e-09,-0.03479367369012187
1.0001658287e-09,0.9325419751248442,1.0001658287e-09,-0.003582996395108187,1.0001658287e-09,0.8784898805664947,1.0001658287e-09,-0.03479362594259713
1.0001940268e-09,0.9345152513510532,1.0001940268e-09,-0.005373210822461308,1.0001940268e-09,0.8784897792468567,1.0001940268e-09,-0.03479351902428867
1.000250423e-09,0.9384016108420914,1.000250423e-09,-0.008875979959328144,1.000250423e-09,0.878489535629365,1.000250423e-09,-0.03479326222272133
1.0003632154e-09,0.9459375505778769,1.0003632154e-09,-0.01558455748905797,1.0003632154e-09,0.8784889031104315,1.0003632154e-09,-0.03479259606689847
1.0005109166e-09,0.9553397120499884,1.0005109166e-09,-0.0238078535547379,1.0005109166e-09,0.8784878286488194,1.0005109166e-09,-0.03479146470920486
1.0006737102e-09,0.9651082616738136,1.0006737102e-09,-0.03219058395936384,1.0006737102e-09,0.8784863866530499,1.0006737102e-09,-0.03478994585735572
1.0008523849e-09,0.9751372537858025,1.0008523849e-09,-0.04064386742549945,1.0008523849e-09,0.8784845705266989,1.0008523849e-09,-0.0347880318350971
1.0010461511e-09,0.9852255983815592,1.0010461511e-09,-0.04901694362025284,1.0010461511e-09,0.8784824071868861,1.0010461511e-09,-0.03478575048191446
1.0012547504e-09,0.9952080145465486,1.0012547504e-09,-0.0572113718893154,1.0012547504e-09,0.8784799352473066,1.0012547504e-09,-0.03478314243882265
1.0014784999e-09,1.004948024853174,1.0014784999e-09,-0.06517598113630858,1.0014784999e-09,0.8784771987296993,1.0014784999e-09,-0.03478025475454467
1.0017166365e-09,1.014265793070821,1.0017166365e-09,-0.07285179803858849,1.0017166365e-09,0.8784742641425988,1.0017166365e-09,-0.03477715914731539
1.0019673834e-09,1.022965381301281,1.0019673834e-09,-0.08019764358090445,1.0019673834e-09,0.8784712167173965,1.0019673834e-09,-0.03477394820804105
1.0022282456e-09,1.030866303323919,1.0022282456e-09,-0.08721243067467931,1.0022282456e-09,0.8784681508183827,1.0022282456e-09,-0.03477072527482027
1.0024974623e-09,1.037853371295276,1.0024974623e-09,-0.09396458726585566,1.0024974623e-09,0.8784651470886659,1.0024974623e-09,-0.03476758019802682
1.0027776125e-09,1.043930328524983,1.0027776125e-09,-0.1006358869933089,1.0027776125e-09,0.8784622357030375,1.0027776125e-09,-0.03476455103485562
1.0030823987e-09,1.049232447434306,1.0030823987e-09,-0.107603606149795,1.0030823987e-09,0.878459357108591,1.0030823987e-09,-0.03476158580643756
1.0034577356e-09,1.054000746052716,1.0034577356e-09,-0.1157769413433324,1.0034577356e-09,0.8784562848777295,1.0034577356e-09,-0.03475847598446706
1.0039552251e-09,1.057555877581758,1.0039552251e-09,-0.1256569471295132,1.0039552251e-09,0.878453140807214,1.0039552251e-09,-0.03475541178433053
1.004425607e-09,1.058307512776693,1.004425607e-09,-0.1336691464922118,1.004425607e-09,0.8784512750095531,1.004425607e-09,-0.03475376188669158
1.004871714e-09,1.057070774722168,1.004871714e-09,-0.1399290554397027,1.004871714e-09,0.8784505489607694,1.004871714e-09,-0.03475335847207792
1.0054562719e-09,1.053337558968915,1.0054562719e-09,-0.146196028247334,1.0054562719e-09,0.8784509814484793,1.0054562719e-09,-0.03475434574154147
1.0062470191e-09,1.044550660386752,1.0062470191e-09,-0.1515416289384409,1.0062470191e-09,0.8784534670768552,1.0062470191e-09,-0.0347577114793891
1.0069507111e-09,1.031622727869634,1.0069507111e-09,-0.1537187800428495,1.0069507111e-09,0.8784569804432899,1.0069507111e-09,-0.03476205110910562
1.0075871112e-09,1.01512166446948,1.0075871112e-09,-0.1539867341734163,1.0075871112e-09,0.8784608359704846,1.0075871112e-09,-0.03476663989312645
1.0082155033e-09,0.9944369962363617,1.0082155033e-09,-0.1529935932050885,1.0082155033e-09,0.8784649816527073,1.0082155033e-09,-0.03477146600559964
1.0088594338e-09,0.9691285025071175,1.0088594338e-09,-0.1509520398074884,1.0088594338e-09,0.8784693150698313,1.0088594338e-09,-0.03477643141987754
1.0095480656e-09,0.9380247920782989,1.0095480656e-09,-0.1478226879499731,1.0095480656e-09,0.8784738769925834,1.0095480656e-09,-0.03478159226850341
1.0103528479e-09,0.8971256715849353,1.0103528479e-09,-0.1430352067177934,1.0103528479e-09,0.8784790259583865,1.0103528479e-09,-0.03478735247150933
1.011463776e-09,0.8338928031446511,1.011463776e-09,-0.1343142930390719,1.011463776e-09,0.8784857090459918,1.011463776e-09,-0.03479475392709187
1.0126891872e-09,0.7565124079192053,1.0126891872e-09,-0.1212183296292,1.0126891872e-09,0.8784922670402368,1.0126891872e-09,-0.03480191222788772
1.0136311476e-09,0.6925923890116185,1.0136311476e-09,-0.1080279480978107,1.0136311476e-09,0.8784966536207728,1.0136311476e-09,-0.03480658797894989
1.0144288352e-09,0.636325376206348,1.0144288352e-09,-0.09410161176613409,1.0144288352e-09,0.8785001336820406,1.0144288352e-09,-0.03481020690391066
1.0151235464e-09,0.586299622066224,1.0151235464e-09,-0.07882773766051482,1.0151235464e-09,0.8785032352358291,1.0151235464e-09,-0.03481335957674801
1.0154551674e-09,0.562061995192239,1.0154551674e-09,-0.06981059051764689,1.0154551674e-09,0.8785048532933235,1.0154551674e-09,-0.03481498726382085
1.0157744031e-09,0.5384904856423994,1.0157744031e-09,-0.05950436955803389,1.0157744031e-09,0.8785065635086686,1.0157744031e-09,-0.03481669419803044
1.0160742747e-09,0.516138346728597,1.0160742747e-09,-0.04830929264549554,1.0160742747e-09,0.8785083668469106,1.0160742747e-09,-0.03481848831097798
1.0163871675e-09,0.4927067289369891,1.0163871675e-09,-0.03540730373350481,1.0163871675e-09,0.8785105135008293,1.0163871675e-09,-0.03482062705928222
1.0166977034e-09,0.4695887585547122,1.0166977034e-09,-0.0217161083346337,1.0166977034e-09,0.878512929265384,1.0166977034e-09,-0.03482303940266269
1.0170046667e-09,0.4471905135051865,1.0170046667e-09,-0.00749495377134091,1.0170046667e-09,0.8785155717851804,1.0170046667e-09,-0.03482568213029957
1.0173842046e-09,0.4205467595951605,1.0173842046e-09,0.01091168734179747,1.0173842046e-09,0.8785191678159878,1.0173842046e-09,-0.0348292950008266
1.0178942245e-09,0.3871459146805107,1.0178942245e-09,0.03695208198609757,1.0178942245e-09,0.8785244716715958,1.0178942245e-09,-0.03483463822416346
1.0185438377e-09,0.3489462853977963,1.0185438377e-09,0.07209346645473506,1.0185438377e-09,0.8785318328282921,1.0185438377e-09,-0.03484207730099764
1.0192656239e-09,0.3119917860827372,1.0192656239e-09,0.1134545652349453,1.0192656239e-09,0.8785405745909508,1.0192656239e-09,-0.03485095639792413
1.02e-09,0.2797812602087541,1.02e-09,0.1577085439040401,1.02e-09,0.8785498479680454,1.02e-09,-0.03486044700656935
1.0200491028e-09,0.274716100234295,1.0200491028e-09,0.164187503988997,1.0200491028e-09,0.8785505320796279,1.0200491028e-09,-0.03486115058577746
1.020099236e-09,0.2696031237991239,1.020099236e-09,0.1707697067204425,1.020099236e-09,0.878551264600586,1.020099236e-09,-0.03486190451722453
1.0201802911e-09,0.2614996996802904,1.0201802911e-09,0.1813143871558081,1.0201802911e-09,0.8785525419011768,1.0201802911e-09,-0.03486322053738213
1.0203424015e-09,0.2459176350294792,1.0203424015e-09,0.2020212449209889,1.0203424015e-09,0.8785554105086275,1.0203424015e-09,-0.03486618032545274
1.0206666221e-09,0.2171445998070904,1.0206666221e-09,0.2419188629985358,1.0206666221e-09,0.8785620841330776,1.0206666221e-09,-0.03487307932206853
1.0213150635e-09,0.1681374768096686,1.0213150635e-09,0.3158917577426505,1.0213150635e-09,0.8785775351195488,1.0213150635e-09,-0.03488912288868338
1.0220137059e-09,0.1262579925487259,1.0220137059e-09,0.3873555564096228,1.0220137059e-09,0.8785953278982563,1.0220137059e-09,-0.03490773693305493
1.0227037087e-09,0.09403430845400579,1.0227037087e-09,0.450090810487591,1.0227037087e-09,0.8786125188362023,1.0227037087e-09,-0.03492592145287482
1.0234142315e-09,0.06840173674782464,1.0234142315e-09,0.5071724844979459,1.0234142315e-09,0.878628767220775,1.0234142315e-09,-0.03494337952663594
1.0241511482e-09,0.04809701623865062,1.0241511482e-09,0.559024218356406,1.0241511482e-09,0.8786433879977782,1.0241511482e-09,-0.03495943859969657
1.0249283306e-09,0.03194219422637943,1.0249283306e-09,0.6064500603143127,1.0249283306e-09,0.8786560893598392,1.0249283306e-09,-0.03497381610606441
1.0257670892e-09,0.01898426131273751,1.0257670892e-09,0.6503436410777149,1.0257670892e-09,0.8786671108785049,1.0257670892e-09,-0.03498678855547445
1.0266549348e-09,0.008940532177913147,1.0266549348e-09,0.6899151504824718,1.0266549348e-09,0.8786771064693341,1.0266549348e-09,-0.03499894556181758
1.027542789e-09,0.001635553424624932,1.027542789e-09,0.7238479816149194,1.027542789e-09,0.8786868162649244,1.027542789e-09,-0.03501081519590235
1.0284376588e-09,-0.004092678763664897,1.0284376588e-09,0.7537927294271253,1.0284376588e-09,0.8786975346233433,1.0284376588e-09,-0.03502359737872066
1.0293553485e-09,-0.008284487714795329,1.0293553485e-09,0.7814008146599714,1.0293553485e-09,0.8787103212581144,1.0293553485e-09,-0.03503825410189938
1.0303290237e-09,-0.01102371487545007,1.0303290237e-09,0.8083524251158719,1.0303290237e-09,0.8787259332356149,1.0303290237e-09,-0.03505541285903512
1.0314365152e-09,-0.01218727012742856,1.0314365152e-09,0.836765339282582,1.0314365152e-09,0.8787457623517754,1.0314365152e-09,-0.03507629712612474
1.0328962744e-09,-0.01072348309085561,1.0328962744e-09,0.870547318782115,1.0328962744e-09,0.8787738870779763,1.0328962744e-09,-0.03510461883941644
1.034880007e-09,-0.004572463464465073,1.034880007e-09,0.9080828001894213,1.034880007e-09,0.8788117547395874,1.034880007e-09,-0.03514104113559133
1.0367643883e-09,0.002449210911713546,1.0367643883e-09,0.9337362166745367,1.0367643883e-09,0.8788414113593283,1.0367643883e-09,-0.03516851865316335
1.0383842166e-09,0.007007091262722262,1.0383842166e-09,0.9481208473497843,1.0383842166e-09,0.8788583677510527,1.0383842166e-09,-0.03518385430845426
1.0400234175e-09,0.00917801881038784,1.0400234175e-09,0.9565004118451291,1.0400234175e-09,0.8788666192599105,1.0400234175e-09,-0.03519132846024952
1.0420894977e-09,0.007803508692328901,1.0420894977e-09,0.9610429339463089,1.0420894977e-09,0.878865533548658,1.0420894977e-09,-0.0351907937824198
1.0438380063e-09,0.003919372368395801,1.0438380063e-09,0.961837502104496,1.0438380063e-09,0.8788560766577472,1.0438380063e-09,-0.03518293238266264
1.0455553873e-09,-0.0008466293361681088,1.0455553873e-09,0.9614441797219803,1.0455553873e-09,0.878840495506252,1.0455553873e-09,-0.03516943817741747
1.0474708104e-09,-0.00553346277468669,1.0474708104e-09,0.9608192299070926,1.0474708104e-09,0.8788168172502953,1.0474708104e-09,-0.03514793620700384
1.0494965601e-09,-0.007605216133777033,1.0494965601e-09,0.9607116655262742,1.0494965601e-09,0.8787850129916268,1.0494965601e-09,-0.0351174874479593
1.0514852768e-09,-0.006503453136608263,1.0514852768e-09,0.9613640031466597,1.0514852768e-09,0.8787472746364564,1.0514852768e-09,-0.03507976961463603
1.0554627101e-09,0.0009928996950770517,1.0554627101e-09,0.9635446273829539,1.0554627101e-09,0.8786547641871747,1.0554627101e-09,-0.03498392128262253
1.0583068653e-09,0.006635563930381823,1.0583068653e-09,0.9647113745548853,1.0583068653e-09,0.8785771824482963,1.0583068653e-09,-0.03490238139393528
1.0606528545e-09,0.009684286908850807,1.0606528545e-09,0.964834545436292,1.0606528545e-09,0.8785087958905613,1.0606528545e-09,-0.03483083073337652
1.0634004184e-09,0.009730063863080589,1.0634004184e-09,0.9638633315366104,1.0634004184e-09,0.878426896495157,1.0634004184e-09,-0.0347461478575084
1.0663685887e-09,0.006173638638103875,1.0663685887e-09,0.9622855827670963,1.0663685887e-09,0.878340691872466,1.0663685887e-09,-0.03465811743168567
1.0702319801e-09,-0.0001904984779716825,1.0702319801e-09,0.9614770932655842,1.0702319801e-09,0.8782399827834607,1.0702319801e-09,-0.03455589903347725
1.0732335709e-09,-0.003399054835377017,1.0732335709e-09,0.9625235307032367,1.0732335709e-09,0.8781762598515744,1.0732335709e-09,-0.03449071672379104
