/net07 X,/net07 Y,/net7 X,/net7 Y,/net5 X,/net5 Y,/net4 X,/net4 Y
0,0.9205349037339035,0,0.00660290255685487,0,0.8784901712827105,0,-0.03479393984059818
3e-11,0.920533256680711,3e-11,0.006602896815266565,3e-11,0.8784901715160941,3e-11,-0.0347939401427452
3.75e-11,0.9205330632121423,3.75e-11,0.006602892318050749,3.75e-11,0.8784901715085214,3.75e-11,-0.03479394016959955
5.25e-11,0.9205329577062684,5.25e-11,0.006602891677979695,5.25e-11,0.878490171299251,5.25e-11,-0.0347939400316231
8.25e-11,0.9205329552909162,8.25e-11,0.006602892601343821,8.25e-11,0.8784901708651347,8.25e-11,-0.03479393966526918
9.27950746e-11,0.9205329930844581,9.27950746e-11,0.006602886809862978,9.27950746e-11,0.8784901709438115,9.27950746e-11,-0.03479393972178337
1.133852238e-10,0.9205329982568902,1.133852238e-10,0.006602894151843779,1.133852238e-10,0.8784901711729119,1.133852238e-10,-0.03479393986196572
1.195610712e-10,0.9205328944856093,1.195610712e-10,0.006602898182084353,1.195610712e-10,0.8784901711774409,1.195610712e-10,-0.03479393983698935
1.31912766e-10,0.9205326350735652,1.31912766e-10,0.006602890149716438,1.31912766e-10,0.8784901710903807,1.31912766e-10,-0.03479393969511029
1.566161556e-10,0.9205328663528702,1.566161556e-10,0.00660284004251237,1.566161556e-10,0.878490170970889,1.566161556e-10,-0.03479393943504014
1.62792003e-10,0.9205329951785231,1.62792003e-10,0.006602831118855091,1.62792003e-10,0.8784901709959756,1.62792003e-10,-0.03479393941774393
1.751436978e-10,0.9205331487521244,1.751436978e-10,0.006602827707205365,1.751436978e-10,0.8784901710850295,1.751436978e-10,-0.03479393944004565
1.998470875e-10,0.920533120080292,1.998470875e-10,0.006602866242735632,1.998470875e-10,0.8784901708857279,1.998470875e-10,-0.03479393932605872
2.060229349e-10,0.9205330791026649,2.060229349e-10,0.006602878154016309,2.060229349e-10,0.8784901707333717,2.060229349e-10,-0.03479393924305278
2.183746297e-10,0.9205330358530495,2.183746297e-10,0.006602890555878736,2.183746297e-10,0.878490170385601,2.183746297e-10,-0.03479393904997253
2.430780193e-10,0.9205329903710971,2.430780193e-10,0.006602902058948352,2.430780193e-10,0.878490170204892,2.430780193e-10,-0.03479393904710219
2.582517121e-10,0.9205329602865803,2.582517121e-10,0.006602898194513156,2.582517121e-10,0.8784901705642193,2.582517121e-10,-0.03479393943607256
2.638848969e-10,0.920532960320027,2.638848969e-10,0.006602893223151206,2.638848969e-10,0.8784901707218189,2.638848969e-10,-0.03479393960905298
2.751512665e-10,0.9205330177575215,2.751512665e-10,0.006602880825875589,2.751512665e-10,0.8784901709019129,2.751512665e-10,-0.03479393984069398
2.976840058e-10,0.9205330662008723,2.976840058e-10,0.006602873364189477,2.976840058e-10,0.8784901702966956,2.976840058e-10,-0.03479393929736024
3.046318352e-10,0.9205330584656068,3.046318352e-10,0.006602875197208105,3.046318352e-10,0.8784901699385564,3.046318352e-10,-0.03479393888317735
3.18527494e-10,0.9205330156895253,3.18527494e-10,0.006602884143221901,3.18527494e-10,0.8784901694521344,3.18527494e-10,-0.03479393807465413
3.463188116e-10,0.920533000687898,3.463188116e-10,0.006602888002079186,3.463188116e-10,0.8784901708085926,3.463188116e-10,-0.03479393798183233
3.557652798e-10,0.920533010776813,3.557652798e-10,0.006602885446345072,3.557652798e-10,0.8784901716974467,3.557652798e-10,-0.03479393826230014
3.746582162e-10,0.920533017442513,3.746582162e-10,0.006602884568890494,3.746582162e-10,0.8784901727398591,3.746582162e-10,-0.03479393825018356
3.85373486e-10,0.9205330161008545,3.85373486e-10,0.006602884373984078,3.85373486e-10,0.878490172619794,3.85373486e-10,-0.03479393772631655
4.068040257e-10,0.9205330355053257,4.068040257e-10,0.006602884025439833,4.068040257e-10,0.8784901715756551,4.068040257e-10,-0.03479393634736862
4.159447902e-10,0.920533034746806,4.159447902e-10,0.006602884346733696,4.159447902e-10,0.8784901712526211,4.159447902e-10,-0.03479393602621092
4.342263191e-10,0.9205330192516362,4.342263191e-10,0.00660288617039764,4.342263191e-10,0.8784901714098526,4.342263191e-10,-0.03479393631218001
4.445601007e-10,0.920533010423168,4.445601007e-10,0.006602887891923946,4.445601007e-10,0.8784901718426728,4.445601007e-10,-0.03479393687926896
4.65227664e-10,0.9205330134626777,4.65227664e-10,0.006602887903013362,4.65227664e-10,0.8784901725516976,4.65227664e-10,-0.03479393807414023
4.770412078e-10,0.9205330227645024,4.770412078e-10,0.006602886194657835,4.770412078e-10,0.8784901724855617,4.770412078e-10,-0.0347939384656139
5.006682954e-10,0.9205330273320201,5.006682954e-10,0.006602885941932393,5.006682954e-10,0.8784901713549056,5.006682954e-10,-0.03479393852958103
5.01e-10,0.9205330272644738,5.01e-10,0.006602885965677137,5.01e-10,0.8784901713320366,5.01e-10,-0.03479393852526936
5.016634091e-10,0.9205330271244534,5.016634091e-10,0.006602886009717439,5.016634091e-10,0.8784901712895463,5.016634091e-10,-0.03479393851869836
5.029902274e-10,0.9205330268416748,5.029902274e-10,0.006602886083082518,5.029902274e-10,0.8784901712118892,5.029902274e-10,-0.03479393850998785
5.05643864e-10,0.9205330263924169,5.05643864e-10,0.006602886195696308,5.05643864e-10,0.8784901710669719,5.05643864e-10,-0.03479393849806951
5.109511373e-10,0.9205330262358045,5.109511373e-10,0.006602886421461337,5.109511373e-10,0.8784901708114631,5.109511373e-10,-0.03479393849123179
5.215656838e-10,0.9205330287641172,5.215656838e-10,0.006602887049271989,5.215656838e-10,0.8784901704973676,5.215656838e-10,-0.03479393857749545
5.427947767e-10,0.9205330309998138,5.427947767e-10,0.006602887730160924,5.427947767e-10,0.8784901707400529,5.427947767e-10,-0.03479393909922591
5.700685934e-10,0.9205330291253867,5.700685934e-10,0.006602887963662755,5.700685934e-10,0.8784901715658219,5.700685934e-10,-0.03479393934167633
6.246162267e-10,0.9205330263290432,6.246162267e-10,0.006602887817344469,6.246162267e-10,0.8784901708360452,6.246162267e-10,-0.03479393663580058
6.672878055e-10,0.9205330241736945,6.672878055e-10,0.006602888239101372,6.672878055e-10,0.8784901708181434,6.672878055e-10,-0.03479393543052963
7.309521787e-10,0.9205330262228948,7.309521787e-10,0.006602888226386507,7.309521787e-10,0.8784901698052823,7.309521787e-10,-0.03479393477862391
8.130077260999999e-10,0.9205330261822824,8.130077260999999e-10,0.006602888119811715,8.130077260999999e-10,0.8784901691591838,8.130077260999999e-10,-0.03479393551617262
8.967080282e-10,0.9205330210016631,8.967080282e-10,0.006602889387823327,8.967080282e-10,0.8784901711171237,8.967080282e-10,-0.03479393426289664
9.01e-10,0.9205330205816629,9.01e-10,0.006602889401464748,9.01e-10,0.8784901712147356,9.01e-10,-0.03479393413151666
9.095839434e-10,0.9205330197526642,9.095839434e-10,0.006602889331629377,9.095839434e-10,0.8784901713391547,9.095839434e-10,-0.03479393386254483
9.267518304e-10,0.9205330177488437,9.267518304e-10,0.006602889069615833,9.267518304e-10,0.8784901713652612,9.267518304e-10,-0.03479393337478556
9.610876042999999e-10,0.9205330131171614,9.610876042999999e-10,0.006602887537124539,9.610876042999999e-10,0.8784901711354822,9.610876042999999e-10,-0.03479393312061271
1e-09,0.9205330087726944,1e-09,0.006602884482865327,1e-09,0.8784901716778822,1e-09,-0.03479393406714362
1.0000054731e-09,0.9221638041897908,1.0000054731e-09,0.005263362544321689,1.0000054731e-09,0.8784901690086272,1.0000054731e-09,-0.03479393123978374
1.0000095613e-09,0.9233807534351984,1.0000095613e-09,0.004264358462087227,1.0000095613e-09,0.8784901659752977,1.0000095613e-09,-0.03479392802668395
1.0000177377e-09,0.9258098985027082,1.0000177377e-09,0.002272150819708057,1.0000177377e-09,0.8784901558449584,1.0000177377e-09,-0.03479391729529351
1.0000236493e-09,0.9275620513332642,1.0000236493e-09,0.00083678362892317,1.0000236493e-09,0.8784901449975816,1.0000236493e-09,-0.03479390580363213
1.0000280059e-09,0.9288510208948525,1.0000280059e-09,-0.0002466938922908152,1.0000280059e-09,0.8784901350717258,1.0000280059e-09,-0.03479389529114862
1.000033204e-09,0.9303864333408234,1.000033204e-09,-0.001666049145116964,1.000033204e-09,0.8784901209927378,1.000033204e-09,-0.03479388040108962
1.0000368519e-09,0.9314622580689013,1.0000368519e-09,-0.00265970055646473,1.0000368519e-09,0.8784901096519006,1.0000368519e-09,-0.03479386842115615
1.000039722e-09,0.9323077669851825,1.000039722e-09,-0.00344012571921044,1.000039722e-09,0.8784900998825617,1.000039722e-09,-0.03479385810909468
1.0000454623e-09,0.9339962420413458,1.0000454623e-09,-0.00499730231894142,1.0000454623e-09,0.8784900781215496,1.0000454623e-09,-0.03479383515857558
1.000056943e-09,0.9373630388956398,1.000056943e-09,-0.008097061172331424,1.000056943e-09,0.8784900258201438,1.000056943e-09,-0.03479378006609109
1.0000799042e-09,0.9440561657394846,1.0000799042e-09,-0.01423905988255272,1.0000799042e-09,0.8784898869617926,1.0000799042e-09,-0.03479363400561614
1.0001258268e-09,0.9572817247617974,1.0001258268e-09,-0.02629983568043413,1.0001258268e-09,0.8784894788067256,1.0001258268e-09,-0.03479320518471402
1.0002108999e-09,0.9812241892108837,1.0002108999e-09,-0.04790207587443333,1.0002108999e-09,0.878488303202661,1.0002108999e-09,-0.03479197063583581
1.0003098938e-09,1.008187858010625,1.0003098938e-09,-0.071935483648928,1.0003098938e-09,0.8784863261290794,1.0003098938e-09,-0.03478989410113844
1.0004155088e-09,1.035915277526301,1.0004155088e-09,-0.09646181540286594,1.0004155088e-09,0.8784835921985688,1.0004155088e-09,-0.03478702161494541
1.0005221844e-09,1.062858969984191,1.0005221844e-09,-0.1203786726023908,1.0005221844e-09,0.8784802712658504,1.0005221844e-09,-0.03478353162778418
1.000622675e-09,1.087289814421731,1.000622675e-09,-0.1425171502044481,1.000622675e-09,0.8784767005564323,1.000622675e-09,-0.0347797797571615
1.0007169051e-09,1.109384146299139,1.0007169051e-09,-0.1632627385829051,1.0007169051e-09,0.8784730126078838,1.0007169051e-09,-0.0347759071261567
1.0008155297e-09,1.131692889617085,1.0008155297e-09,-0.1850744297883796,1.0008155297e-09,0.8784688441516731,1.0008155297e-09,-0.03477153472627
1.0009656916e-09,1.16415406382221,1.0009656916e-09,-0.2180147672606507,1.0009656916e-09,0.8784619879468818,1.0009656916e-09,-0.03476435641074749
1.0011034331e-09,1.192542100395879,1.0011034331e-09,-0.2471745163226891,1.0011034331e-09,0.8784552511904928,1.0011034331e-09,-0.03475731717920794
1.0012223082e-09,1.21634859504188,1.0012223082e-09,-0.2711503648864282,1.0012223082e-09,0.8784491614879445,1.0012223082e-09,-0.03475096250641278
1.0013655061e-09,1.244856012110705,1.0013655061e-09,-0.2984212470894742,1.0013655061e-09,0.8784415684555034,1.0013655061e-09,-0.03474304365719985
1.0015833426e-09,1.287732917381002,1.0015833426e-09,-0.3365497749025828,1.0015833426e-09,0.8784296565675992,1.0015833426e-09,-0.03473061548649756
1.0018175115e-09,1.330469852681192,1.0018175115e-09,-0.3732780591841541,1.0018175115e-09,0.8784166327285773,1.0018175115e-09,-0.03471701600155065
1.0020407942e-09,1.366646642306107,1.0020407942e-09,-0.4046045078591808,1.0020407942e-09,0.8784042733831402,1.0020407942e-09,-0.03470410638764633
1.0023253653e-09,1.406007687614054,1.0023253653e-09,-0.4401766466508948,1.0023253653e-09,0.8783890057732725,1.0023253653e-09,-0.034688174147013
1.0026022523e-09,1.437212795874224,1.0026022523e-09,-0.4710318261237843,1.0026022523e-09,0.8783750014119098,1.0026022523e-09,-0.03467360268704329
1.0028800439e-09,1.461799735913188,1.0028800439e-09,-0.4990019018812536,1.0028800439e-09,0.8783620732458786,1.0028800439e-09,-0.03466022323686026
1.0031930672e-09,1.481995458779485,1.0031930672e-09,-0.5274894393415411,1.0031930672e-09,0.8783491367610013,1.0031930672e-09,-0.03464696120973282
1.0035770138e-09,1.496255600832759,1.0035770138e-09,-0.5585067064610625,1.0035770138e-09,0.8783360106033505,1.0035770138e-09,-0.03463375504809066
1.003844206e-09,1.494627706648794,1.003844206e-09,-0.5776797497907431,1.003844206e-09,0.8783289499116865,1.003844206e-09,-0.03462689967783397
1.0040912442e-09,1.483785648244085,1.0040912442e-09,-0.5937072777931054,1.0040912442e-09,0.8783241848086163,1.0040912442e-09,-0.03462256179089857
1.0043057652e-09,1.47119300528391,1.0043057652e-09,-0.6063206746185211,1.0043057652e-09,0.8783214997341461,1.0043057652e-09,-0.0346204400323522
1.0045094667e-09,1.457590660175954,1.0045094667e-09,-0.6171861224070148,1.0045094667e-09,0.8783202002776596,1.0045094667e-09,-0.03461983270245173
1.0047547333e-09,1.439395710024788,1.0047547333e-09,-0.6288262045793189,1.0047547333e-09,0.8783201804642737,1.0047547333e-09,-0.03462082724326513
1.005e-09,1.419377913194186,1.005e-09,-0.6388535611081037,1.005e-09,0.8783217285857157,1.005e-09,-0.03462355929144044
1.0050256671e-09,1.410171788010473,1.0050256671e-09,-0.6327736749625056,1.0050256671e-09,0.8783220459235169,1.0050256671e-09,-0.03462401305946985
1.0050534795e-09,1.400223038702344,1.0050534795e-09,-0.6262096447624856,1.0050534795e-09,0.8783224453935893,1.0050534795e-09,-0.03462456313814961
1.0050939754e-09,1.385804943033085,1.0050939754e-09,-0.6167124625435539,1.0050939754e-09,0.87832316187423,1.0050939754e-09,-0.03462550563992361
1.0051749673e-09,1.357225768201419,1.0051749673e-09,-0.5979435571885533,1.0051749673e-09,0.878325076478735,1.0051749673e-09,-0.03462789629858305
1.0053369509e-09,1.301101433288818,1.0053369509e-09,-0.5612753172968851,1.0053369509e-09,0.8783306281795235,1.0053369509e-09,-0.03463448535169162
1.0056609183e-09,1.192941248651515,1.0056609183e-09,-0.4909709178113972,1.0056609183e-09,0.8783471764618757,1.0056609183e-09,-0.03465336676988994
1.006051004e-09,1.069839482023427,1.006051004e-09,-0.4099189670359854,1.006051004e-09,0.8783740804728227,1.006051004e-09,-0.03468335722258866
1.0063738223e-09,0.9738087713001315,1.0063738223e-09,-0.3435952305516313,1.0063738223e-09,0.8784003299881611,1.0063738223e-09,-0.03471223925794199
1.0066524415e-09,0.8951634957130452,1.0066524415e-09,-0.2872646371692779,1.0066524415e-09,0.8784247902746534,1.0066524415e-09,-0.0347389288434297
1.007106814e-09,0.7753836708975206,1.007106814e-09,-0.1997637705482981,1.007106814e-09,0.8784659909044638,1.007106814e-09,-0.0347834823155717
1.0074431621e-09,0.6937001454590047,1.0074431621e-09,-0.1389369709496565,1.0074431621e-09,0.8784963818093154,1.0074431621e-09,-0.03481603151109698
1.0079318759e-09,0.586532444632987,1.0079318759e-09,-0.0564543456811825,1.0079318759e-09,0.8785382671625134,1.0079318759e-09,-0.03486038153251637
1.0086291923e-09,0.4596591870065477,1.0086291923e-09,0.04956055663112079,1.0086291923e-09,0.8785893757835948,1.0086291923e-09,-0.03491330085517569
1.0093110795e-09,0.3641183425017706,1.0093110795e-09,0.1404625668797454,1.0093110795e-09,0.8786258852718177,1.0093110795e-09,-0.03494946818335953
1.0102237355e-09,0.2728892499460017,1.0102237355e-09,0.2440160656652834,1.0102237355e-09,0.8786510741129221,1.0102237355e-09,-0.03497122735130418
1.0108645921e-09,0.2290246245818999,1.0108645921e-09,0.305594344201916,1.0108645921e-09,0.8786540180142105,1.0108645921e-09,-0.03497024906605183
1.0114441007e-09,0.200201181766839,1.0114441007e-09,0.3545394438352049,1.0114441007e-09,0.8786483615632705,1.0114441007e-09,-0.0349604623468891
1.0120396733e-09,0.1781274893125193,1.0120396733e-09,0.3994163559594162,1.0120396733e-09,0.8786367331258114,1.0120396733e-09,-0.03494447442842823
1.0126333756e-09,0.1609185778968887,1.0126333756e-09,0.4399435545920427,1.0126333756e-09,0.8786214179364735,1.0126333756e-09,-0.03492507230108954
1.0132365721e-09,0.1458262416697647,1.0132365721e-09,0.4781262526831211,1.0132365721e-09,0.8786042454340687,1.0132365721e-09,-0.03490433462703812
1.0138415748e-09,0.131131399107585,1.0138415748e-09,0.5146090075276503,1.0138415748e-09,0.8785874142437683,1.0138415748e-09,-0.03488476588343792
1.0144643138e-09,0.1151178909422162,1.0144643138e-09,0.551236484750212,1.0144643138e-09,0.8785723220654531,1.0144643138e-09,-0.03486788679750366
1.0151517568e-09,0.09566249302194929,1.0151517568e-09,0.5913081350868287,1.0151517568e-09,0.8785599186848789,1.0151517568e-09,-0.03485480329114179
1.0159727683e-09,0.07020343375523745,1.0159727683e-09,0.6389674174663146,1.0159727683e-09,0.8785524224273725,1.0159727683e-09,-0.03484822371128834
1.0172613964e-09,0.02916283454389014,1.0172613964e-09,0.7117452230203741,1.0172613964e-09,0.8785588801654193,1.0172613964e-09,-0.03485939789969266
1.0183423501e-09,-0.00199090783156178,1.0183423501e-09,0.7679352322999832,1.0183423501e-09,0.8785811613835843,1.0183423501e-09,-0.03488791305514239
1.0192193313e-09,-0.02446242767481824,1.0192193313e-09,0.8082780412310586,1.0192193313e-09,0.8786086214670206,1.0192193313e-09,-0.03492121869983448
1.02e-09,-0.03886659156870998,1.02e-09,0.8391776035599805,1.02e-09,0.8786378801566888,1.02e-09,-0.03495569254453843
1.0201667592e-09,-0.04112417227546744,1.0201667592e-09,0.845025547766036,1.0201667592e-09,0.87864464525678,1.0201667592e-09,-0.03496354398652833
1.0205002777e-09,-0.04501826496979305,1.0205002777e-09,0.856120762207099,1.0205002777e-09,0.8786582295234548,1.0205002777e-09,-0.03497922629898116
1.0211673148e-09,-0.049914505880838,1.0211673148e-09,0.875448514996185,1.0211673148e-09,0.8786854713676594,1.0211673148e-09,-0.03501023329228919
1.0220492e-09,-0.05080773441059076,1.0220492e-09,0.8952735102523344,1.0220492e-09,0.8787205094506312,1.0220492e-09,-0.0350491862127027
1.0236958215e-09,-0.03962915668587007,1.0236958215e-09,0.9180551562210348,1.0236958215e-09,0.8787784656484794,1.0236958215e-09,-0.03511079216117
1.0248918e-09,-0.02489189989257562,1.0248918e-09,0.9260941601048156,1.0248918e-09,0.8788124528854352,1.0248918e-09,-0.03514455776335726
1.0259234674e-09,-0.01069690357084927,1.0259234674e-09,0.9296179477453972,1.0259234674e-09,0.8788358870861963,1.0259234674e-09,-0.03516624578319858
1.0269667709e-09,0.002406100466696047,1.0269667709e-09,0.931849413308641,1.0269667709e-09,0.8788542382756875,1.0269667709e-09,-0.03518184188170313
1.0280362071e-09,0.01257688053362991,1.0280362071e-09,0.9340085249309547,1.0280362071e-09,0.8788686376685035,1.0280362071e-09,-0.03519293768032834
1.0292627763e-09,0.02072683001936046,1.0292627763e-09,0.9372245086049669,1.0292627763e-09,0.878881194144095,1.0292627763e-09,-0.03520173386461969
1.030799544e-09,0.02515801749202518,1.030799544e-09,0.9426849622433876,1.030799544e-09,0.878892525548669,1.030799544e-09,-0.03520918573948019
1.033455224e-09,0.02065459049076234,1.033455224e-09,0.9532812877973196,1.033455224e-09,0.8789008321642238,1.033455224e-09,-0.03521452707084446
1.035591061e-09,0.0104162226913479,1.035591061e-09,0.9602214841433027,1.035591061e-09,0.8788962790720606,1.035591061e-09,-0.03521118369502796
1.0374610732e-09,0.0001909515787005683,1.0374610732e-09,0.96434459527786,1.0374610732e-09,0.8788832235546906,1.0374610732e-09,-0.03520103080107811
1.0393481463e-09,-0.009272957171620291,1.0393481463e-09,0.9670663726675294,1.0393481463e-09,0.8788612293617974,1.0393481463e-09,-0.0351824862229216
1.0415438811e-09,-0.01509503806260105,1.0415438811e-09,0.969278048710235,1.0415438811e-09,0.8788258040912181,1.0415438811e-09,-0.03515029806525587
1.043476374e-09,-0.01518756305849884,1.043476374e-09,0.9706515090327269,1.043476374e-09,0.8787872802891761,1.043476374e-09,-0.03511321989109299
1.0472688425e-09,-0.004980181753423756,1.0472688425e-09,0.9699883549471033,1.0472688425e-09,0.8786958522992409,1.0472688425e-09,-0.03502030641450528
1.05e-09,0.00577371566224243,1.05e-09,0.9660754947924629,1.05e-09,0.8786175098357923,1.05e-09,-0.03493817541406832
1.0500416898e-09,-0.004674023868658759,1.0500416898e-09,0.9779496026456945,1.0500416898e-09,0.8786163830115475,1.0500416898e-09,-0.03493697774202555
1.0501160235e-09,-0.02416846641694492,1.0501160235e-09,0.9987889430416513,1.0501160235e-09,0.8786146528106664,1.0501160235e-09,-0.03493513118806591
1.0502192693e-09,-0.05006470700393006,1.0502192693e-09,1.026891622709642,1.0502192693e-09,0.8786128980861087,1.0502192693e-09,-0.03493323753847569
1.0503120765e-09,-0.07221150783949952,1.0503120765e-09,1.051299828962761,1.0503120765e-09,0.8786119153116929,1.0503120765e-09,-0.03493214987628514
