! Created Sat Apr 30 22:04:53 2016
# hz S ma R 50
! 4 Port Network Data from SP1.SP block
! freq  magS11  angS11  magS12  angS12  magS13  angS13  magS14  angS14  
!       magS21  angS21  magS22  angS22  magS23  angS23  magS24  angS24  
!       magS31  angS31  magS32  angS32  magS33  angS33  magS34  angS34  
!       magS41  angS41  magS42  angS42  magS43  angS43  magS44  angS44  
!     
         100000000     0.00669963573        -43.9470493       0.0315627847        -12.6585429        0.994553243        -102.118179       0.0365547603         167.216265
                     0.0315627847        -12.6585429       0.0065150512        -44.7544553        0.036553662          167.22956        0.994559289        -102.137412
                      0.994553243        -102.118179        0.036553662          167.22956      0.00669045061        -43.8616549       0.0315624711        -12.6575023
                     0.0365547603         167.216265        0.994559289        -102.137412       0.0315624711        -12.6575023      0.00652396511        -44.8557127

         200000000     0.00819292635         49.3751868       0.0163864848         61.8416461        0.991177289          155.68802       0.0745496342         64.9138021
                     0.0163864848         61.8416461      0.00812323125         49.2442429        0.074548713         64.9215226        0.991184313         155.649513
                      0.991177289          155.68802        0.074548713         64.9215226      0.00819170788         49.3992069       0.0163860451         61.8389998
                     0.0745496342         64.9138021        0.991184313         155.649513       0.0163860451         61.8389998      0.00812603656         49.2107994

         300000000      0.0440502875         -51.168417       0.0559610419        -43.3646018        0.980682575         53.5825614        0.110840646        -39.2845597
                     0.0559610419        -43.3646018       0.0439778819        -51.2160561        0.110841924        -39.2797438        0.980693062          53.524055
                      0.980682575         53.5825614        0.110841924        -39.2797438         0.04405508        -51.1703214       0.0559550372          -43.37239
                      0.110840646        -39.2845597        0.980693062          53.524055       0.0559550372          -43.37239       0.0439934688        -51.2431606

         400000000      0.0651502305        -146.543595       0.0297533224        -163.484985        0.969873676        -48.3037946        0.143286553        -141.509349
                     0.0297533224        -163.484985       0.0654318745        -146.562512        0.143289069        -141.506699        0.969863702         -48.381603
                      0.969873676        -48.3037946        0.143289069        -141.506699       0.0651607627        -146.568052       0.0297443556        -163.511817
                      0.143286553        -141.509349        0.969863702         -48.381603       0.0297443556        -163.511817        0.065445343        -146.584874

         500000000      0.0232394379         121.442052      0.00615425777        -12.4829219        0.958340113        -150.243639        0.178876356         116.521744
                    0.00615425777        -12.4829219       0.0233138827         121.383837        0.178880019         116.522674        0.958349095         -150.34055
                      0.958340113        -150.243639        0.178880019         116.522674       0.0232427414         121.402179      0.00615765883         -12.529556
                      0.178876356         116.521744        0.958349095         -150.34055      0.00615765883         -12.529556       0.0233171184         121.368406

         600000000      0.0693972501        -174.322371       0.0360506062         158.519127        0.940159488         107.808133        0.213133632          13.197817
                     0.0360506062         158.519127       0.0698058426        -174.378431        0.213136894         13.1969999        0.940142614          107.69017
                      0.940159488         107.808133        0.213136894         13.1969999       0.0694042064        -174.373622       0.0360424038         158.484504
                      0.213133632          13.197817        0.940142614          107.69017       0.0360424038         158.484504       0.0698014644         -174.38792

         700000000       0.120960749         82.0165022       0.0839949329          66.499603        0.920302297         6.58586227        0.238717684        -90.0353023
                     0.0839949329          66.499603         0.12116313         81.8971622        0.238716333        -90.0372221        0.920291849         6.45078337
                      0.920302297         6.58586227        0.238716333        -90.0372221        0.120985454         81.9503698       0.0839651598         66.4807848
                      0.238717684        -90.0353023        0.920291849         6.45078337       0.0839651598         66.4807848         0.12114806         81.8980249

         800000000      0.0734840117        -22.9986056       0.0710723902         -24.716321        0.914923379         -94.736091         0.26303074         169.917294
                     0.0710723902         -24.716321       0.0732669958        -23.2331272        0.263029543         169.915729        0.914948093        -94.8934995
                      0.914923379         -94.736091        0.263029543         169.915729       0.0735185498        -23.0901505       0.0710454831        -24.7216506
                       0.26303074         169.917294        0.914948093        -94.8934995       0.0710454831        -24.7216506       0.0732500466        -23.2165849

         900000000      0.0444389251         42.4278088       0.0445807586         42.1502765        0.898387619         162.947777        0.303439491         67.9591879
                     0.0445807586         42.1502765       0.0446059447         42.3268225        0.303441733         67.9549029        0.898386249         162.768947
                      0.898387619         162.947777        0.303441733         67.9549029       0.0444409524         42.3781278       0.0445755516         42.1316343
                      0.303439491         67.9591879        0.898386249         162.768947       0.0445755516         42.1316343       0.0445909744         42.3382699

             1e+09       0.137844684        -53.4284821        0.129236819        -57.0742252        0.870794153         61.9537307        0.323768281        -36.1468409
                      0.129236819        -57.0742252         0.13796819        -53.6739142        0.323749531        -36.1523292        0.870788324         61.7535807
                      0.870794153         61.9537307        0.323749531        -36.1523292         0.13791013         -53.518093         0.12919908        -57.0839703
                      0.323768281        -36.1468409        0.870788324         61.7535807         0.12919908        -57.0839703        0.137903129        -53.6328554

           1.1e+09       0.148114753        -145.060332        0.101075147        -169.090073        0.866552011        -38.8766375        0.337705356        -135.726377
                      0.101075147        -169.090073        0.148266445        -145.343153        0.337685983        -135.728439        0.866531415        -39.0975557
                      0.866552011        -38.8766375        0.337685983        -135.728439        0.148177603        -145.169474        0.101037747        -169.100346
                      0.337705356        -135.726377        0.866531415        -39.0975557        0.101037747        -169.100346        0.148202305        -145.275431

           1.2e+09      0.0473907719         140.141671       0.0179772205         10.9445061        0.859479177        -141.333562        0.380623687          124.35087
                     0.0179772205         10.9445061       0.0470997953          139.91662        0.380625894         124.346215        0.859473519        -141.578359
                      0.859479177        -141.333562        0.380625894         124.346215       0.0473790188         139.999153       0.0179728769         10.9019354
                      0.380623687          124.35087        0.859473519        -141.578359       0.0179728769         10.9019354       0.0471137831         140.019278

           1.3e+09       0.128538425          178.71919        0.107206333         160.914316        0.823203252         116.539342        0.414936024         19.6593052
                      0.107206333         160.914316        0.129161521         178.482337        0.414915582          19.649943        0.823096075         116.273128
                      0.823203252         116.539342        0.414915582          19.649943        0.128605442         178.629507        0.107191982         160.909766
                      0.414936024         19.6593052        0.823096075         116.273128        0.107191982         160.909766        0.129086889           178.5621

           1.4e+09       0.209244205          83.978463        0.163544225         58.7355273        0.798250257          16.762471          0.4168551        -82.8177247
                      0.163544225         58.7355273        0.209345301         83.5936065        0.416793588        -82.8250265        0.798238292         16.4818796
                      0.798250257          16.762471        0.416793588        -82.8250265         0.20938626         83.8664619        0.163523145          58.735305
                        0.4168551        -82.8177247        0.798238292         16.4818796        0.163523145          58.735305        0.209216421         83.7060304

           1.5e+09       0.128730458        -14.7774697        0.103278074        -35.4383668        0.809175575        -84.6410061        0.439272033         179.185381
                      0.103278074        -35.4383668        0.128059674        -15.3510499        0.439234841         179.183554        0.809243985        -84.9575619
                      0.809175575        -84.6410061        0.439234841         179.183554        0.128862049        -14.9291749        0.103270016        -35.4361733
                      0.439272033         179.185381        0.809243985        -84.9575619        0.103270016        -35.4361733        0.127944567        -15.1844834

           1.6e+09       0.081101874         33.3907177       0.0821656412         37.4576618         0.77536164         171.628785        0.493944788         75.8366414
                     0.0821656412         37.4576618       0.0816245593         33.3481966        0.493931748         75.8263578        0.775242247         171.286994
                       0.77536164         171.628785        0.493931748         75.8263578       0.0811222419         33.3551449       0.0821672656         37.4701637
                      0.493944788         75.8366414        0.775242247         171.286994       0.0821672656         37.4701637       0.0816102002         33.4016473

           1.7e+09       0.209169222        -55.7290353        0.198708369        -63.6749578        0.732831912         72.2217196        0.490718146        -28.8980817
                      0.198708369        -63.6749578        0.209458086         -56.209988        0.490607181        -28.9098317        0.732764364         71.8638587
                      0.732831912         72.2217196        0.490607181        -28.9098317        0.209428901        -55.8350706        0.198728543        -63.6625526
                      0.490718146        -28.8980817        0.732764364         71.8638587        0.198728543        -63.6625526        0.209210213          -56.06484

           1.8e+09       0.203791413        -142.922648        0.167795343        -170.812579         0.74190623        -27.9785008        0.488478885        -127.054166
                      0.167795343        -170.812579        0.203598228        -143.536511        0.488369627        -127.053057         0.74194047        -28.3681782
                       0.74190623        -27.9785008        0.488369627        -127.053057        0.204052969        -143.075511        0.167829742        -170.796842
                      0.488478885        -127.054166         0.74194047        -28.3681782        0.167829742        -170.796842        0.203356846         -143.32551

           1.9e+09      0.0672787553         161.770249       0.0334163952         20.3363771        0.729873589        -132.115627        0.547225124         133.173271
                     0.0334163952         20.3363771       0.0661968171         161.565803        0.547220476         133.169576         0.72981571        -132.548383
                      0.729873589        -132.115627        0.547220476         133.169576        0.067179079         161.557246       0.0334357292          20.376707
                      0.547225124         133.173271         0.72981571        -132.548383       0.0334357292          20.376707       0.0663268208         161.862391

             2e+09       0.172503987         168.458086         0.16820594         160.257026        0.667357087         126.570277        0.570681448         26.8798092
                       0.16820594         160.257026         0.17351089         168.124629        0.570597213         26.8659499        0.667023962          126.12193
                      0.667357087         126.570277        0.570597213         26.8659499        0.172746452         168.378597        0.168233094         160.288027
                      0.570681448         26.8798092        0.667023962          126.12193        0.168233094         160.288027        0.173307189         168.270413

           2.1e+09       0.246880757         83.8331019        0.232942561         55.8025894        0.650619091          28.774953        0.544225995        -74.3449412
                      0.232942561         55.8025894        0.247087013         83.1880939        0.544045802        -74.3509122        0.650557616         28.3167979
                      0.650619091          28.774953        0.544045802        -74.3509122        0.247260801         83.6986283        0.233019986         55.8339399
                      0.544225995        -74.3449412        0.650557616         28.3167979        0.233019986         55.8339399        0.246707671         83.4059976

           2.2e+09       0.151857572        -7.24248518        0.136043763        -41.6590678        0.669928392          -73.48688        0.572207942        -171.219211
                      0.136043763        -41.6590678        0.150708281        -8.19747414        0.572115071        -171.213768        0.670017458        -74.0119516
                      0.669928392          -73.48688        0.572115071        -171.213768        0.152103541        -7.44954851        0.136141942        -41.6292835
                      0.572207942        -171.219211        0.670017458        -74.0119516        0.136141942        -41.6292835        0.150389564        -7.87269566

           2.3e+09       0.114747776          22.762146         0.10744479         32.8473827        0.611337112        -177.816517        0.629010367         83.9683101
                       0.10744479         32.8473827        0.115494528         22.8706855        0.628981819         83.9593587        0.610933866          -178.3812
                      0.611337112        -177.816517        0.628981819         83.9593587        0.114788507          22.768861        0.107419769         32.8874152
                      0.629010367         83.9683101        0.610933866          -178.3812        0.107419769         32.8874152        0.115567461         22.9527144

           2.4e+09       0.236879349        -60.2033007        0.238979428        -67.3488642        0.574049724         85.5773842        0.599320496        -19.8133303
                      0.238979428        -67.3488642         0.23773219         -60.817241        0.599117709        -19.8236536        0.573699556         85.0128386
                      0.574049724         85.5773842        0.599117709        -19.8236536        0.237348419        -60.2900368        0.239075834        -67.3052592
                      0.599320496        -19.8133303        0.573699556         85.0128386        0.239075834        -67.3052592        0.237215542        -60.6353944

           2.5e+09        0.21172569        -142.617243        0.210410524        -169.777387         0.59528835        -14.8128297        0.593062583        -117.078333
                      0.210410524        -169.777387        0.211756456        -143.513309        0.592866954        -117.069173        0.595192618        -15.4234088
                       0.59528835        -14.8128297        0.592866954        -117.069173        0.212180367        -142.781048        0.210561724        -169.726148
                      0.593062583        -117.078333        0.595192618        -15.4234088        0.210561724        -169.726148         0.21114122        -143.223732

           2.6e+09      0.0822918259        -177.132165       0.0414643635          43.462216        0.567591897        -120.606185        0.657557398         142.399032
                     0.0414643635          43.462216       0.0806395153        -177.164513        0.657558472         142.403162        0.567344396        -121.301703
                      0.567591897        -120.606185        0.657558472         142.403162        0.082039398        -177.314645       0.0415237096         43.6126773
                      0.657557398         142.399032        0.567344396        -121.301703       0.0415237096         43.6126773       0.0809036647        -176.748719

           2.7e+09       0.195611653         158.240076        0.186862271         158.982332        0.498517596         140.884262        0.660187569         36.3412488
                      0.186862271         158.982332        0.197020326         157.981197        0.660083635         36.3324213        0.497689037         140.174323
                      0.498517596         140.884262        0.660083635         36.3324213        0.195943685         158.219528        0.186880118         159.034966
                      0.660187569         36.3412488        0.497689037         140.174323        0.186880118         159.034966         0.19673389         158.114018

           2.8e+09       0.237027547         81.2274263         0.26788759         56.2897891        0.501003993         44.2903674        0.622843448        -63.5859079
                       0.26788759         56.2897891        0.237923652         80.4512096        0.622631556        -63.5847048          0.5005092         43.5906492
                      0.501003993         44.2903674        0.622631556        -63.5847048         0.23752623          81.121388        0.268008988           56.34989
                      0.622843448        -63.5859079          0.5005092         43.5906492        0.268008988           56.34989        0.237252243          80.667251

           2.9e+09       0.143244166         -0.5303849        0.160880745        -41.0473061        0.512552393        -59.7227732        0.657516713        -160.735585
                      0.160880745        -41.0473061        0.142078921        -1.78344729        0.657426068        -160.723062         0.51236995        -60.5323357
                      0.512552393        -59.7227732        0.657426068        -160.723062        0.143469519       -0.740064366        0.161053276        -40.9737335
                      0.657516713        -160.735585         0.51236995        -60.5323357        0.161053276        -40.9737335        0.141534283        -1.42515542

